(1779067270.672182) can1 0CFE6CEE#0000000000000000
(1779067270.673165) can1 0CF00400#007D7D000000F07D
(1779067270.673759) can1 18FF0000#8A17FFFFFFFFFFFF
(1779067270.676179) can1 18FEE017#00000000508C0600
(1779067270.683156) can1 0CF00400#007D7D000000F07D
(1779067270.683744) can1 18FEDF00#855000007DFFFFF3
(1779067270.693151) can1 0CF00400#007D7D000000F07D
(1779067270.693737) can1 0CF00300#D1000000FFFF00FF
(1779067270.694333) can1 18FF0000#8A17FFFFFFFFFFFF
(1779067270.703208) can1 0CF00400#007D7D000000F07D
(1779067270.713142) can1 0CF00400#007D7D000000F07D
(1779067270.713738) can1 18FF0000#8A17FFFFFFFFFFFF
(1779067270.720275) can1 0CFE6CEE#0000000000000000
(1779067270.723220) can1 0CF00400#007D7D000000F07D
(1779067270.733164) can1 0CF00400#007D7D000000F07D
(1779067270.733740) can1 18F0000F#C07D7DF3007DFF7D
(1779067270.734330) can1 18FEE000#0000000011860600
(1779067270.734926) can1 18FEF200#000000000000FFFF
(1779067270.735515) can1 18FEF100#F3000004000000FF
(1779067270.736105) can1 18FF0000#8A17FFFFFFFFFFFF
(1779067270.736670) can1 18FEE517#9494010000000000
(1779067270.743147) can1 0CF00400#007D7D000000F07D
(1779067270.743731) can1 0CF00300#D1000000FFFF00FF
(1779067270.744330) can1 18FF0800#004030010000000F
(1779067270.753141) can1 0CF00400#007D7D000000F07D
(1779067270.753735) can1 18FF0000#8A17FFFFFFFFFFFF
(1779067270.763160) can1 0CF00400#007D7D000000F07D
(1779067270.768411) can1 0CFE6CEE#0000000000000000
(1779067270.773144) can1 0CF00400#007D7D000000F07D
(1779067270.773739) can1 18FF0000#8A17FFFFFFFFFFFF
(1779067270.776439) can1 18FEE017#00000000508C0600
(1779067270.783157) can1 0CF00400#007D7D000000F07D
(1779067270.793160) can1 0CF00400#007D7D000000F07D
(1779067270.793743) can1 0CF00300#D1000000FFFF00FF
(1779067270.794341) can1 18FF0000#8A17FFFFFFFFFFFF
(1779067270.803204) can1 0CF00400#007D7D000000F07D
(1779067270.813140) can1 0CF00400#007D7D000000F07D
(1779067270.813736) can1 18FF0000#8A17FFFFFFFFFFFF
(1779067270.816532) can1 18FFE117#00005456EE000000
(1779067270.817111) can1 0CFE6CEE#0000000000000000
(1779067270.823161) can1 0CF00400#007D7D000000F07D
(1779067270.833166) can1 0CF00400#007D7D000000F07D
(1779067270.833742) can1 18F0000F#C07D7DF3007DFF7D
(1779067270.834333) can1 18FEE000#0000000011860600
(1779067270.834929) can1 18FEF200#000000000000FFFF
(1779067270.835513) can1 18FEF100#F3000004000000FF
(1779067270.836114) can1 18FF0000#8A17FFFFFFFFFFFF
(1779067270.843154) can1 0CF00400#007D7D000000F07D
(1779067270.843742) can1 0CF00300#D1000000FFFF00FF
(1779067270.844329) can1 18FEF600#FF00352BFFFFFFFF
(1779067270.844916) can1 18FEEF00#FFFFE100FFFFFFFF
(1779067270.845518) can1 18FF0800#004030010000000F
(1779067270.853159) can1 0CF00400#007D7D000000F07D
(1779067270.853749) can1 18FF0000#8A17FFFFFFFFFFFF
(1779067270.863173) can1 0CF00400#007D7D000000F07D
(1779067270.864770) can1 0CFE6CEE#0000000000000000
(1779067270.873156) can1 0CF00400#007D7D000000F07D
(1779067270.873749) can1 18FF0000#8A17FFFFFFFFFFFF
(1779067270.876792) can1 18FEE017#00000000508C0600
(1779067270.883172) can1 0CF00400#007D7D000000F07D
(1779067270.893159) can1 0CF00400#007D7D000000F07D
(1779067270.893744) can1 0CF00300#D1000000FFFF00FF
(1779067270.894338) can1 18FF0000#8A17FFFFFFFFFFFF
(1779067270.903218) can1 0CF00400#007D7D000000F07D
(1779067270.912951) can1 0CFE6CEE#0000000000000000
(1779067270.913435) can1 0CF00400#007D7D000000F07D
(1779067270.914028) can1 18FF0000#8A17FFFFFFFFFFFF
(1779067270.923164) can1 0CF00400#007D7D000000F07D
(1779067270.933140) can1 0CF00400#007D7D000000F07D
(1779067270.933715) can1 18F0000F#C07D7DF3007DFF7D
(1779067270.934307) can1 18FEE000#0000000011860600
(1779067270.934903) can1 18FEF200#000000000000FFFF
(1779067270.935487) can1 18FEF100#F3000004000000FF
(1779067270.936082) can1 18FF0000#8A17FFFFFFFFFFFF
(1779067270.936663) can1 18FEDF00#855000007DFFFFF3
(1779067270.943156) can1 0CF00400#007D7D000000F07D
(1779067270.943744) can1 0CF00300#D1000000FFFF00FF
(1779067270.944343) can1 18FF0800#004030010000000F
(1779067270.953161) can1 0CF00400#007D7D000000F07D
(1779067270.953750) can1 18FF0000#8A17FFFFFFFFFFFF
(1779067270.961023) can1 0CFE6CEE#0000000000000000
(1779067270.963167) can1 0CF00400#007D7D000000F07D
(1779067270.973177) can1 0CF00400#007D7D000000F07D
(1779067270.973747) can1 18FF0000#8A17FFFFFFFFFFFF
(1779067270.977067) can1 18FEE017#00000000508C0600
(1779067270.983212) can1 0CF00400#007D7D000000F07D
(1779067270.993177) can1 0CF00400#007D7D000000F07D
(1779067270.993762) can1 0CF00300#D1000000FFFF00FF
(1779067270.994350) can1 18FF0000#8A17FFFFFFFFFFFF
(1779067271.003287) can1 0CF00400#007D7D000000F07D
(1779067271.009105) can1 0CFE6CEE#0000000000000000
(1779067271.013161) can1 0CF00400#007D7D000000F07D
(1779067271.013756) can1 18FF0000#8A17FFFFFFFFFFFF
(1779067271.017136) can1 18FFE117#00005456EE000000
(1779067271.023157) can1 0CF00400#007D7D000000F07D
(1779067271.033162) can1 0CF00400#007D7D000000F07D
(1779067271.033732) can1 18F0000F#C07D7DF3007DFF7D
(1779067271.034320) can1 18FEE000#0000000011860600
(1779067271.034920) can1 18FEF200#000000000000FFFF
(1779067271.035502) can1 18FEF100#F3000004000000FF
(1779067271.036095) can1 18FF0000#8A17FFFFFFFFFFFF
(1779067271.043164) can1 0CF00400#007D7D000000F07D
(1779067271.043754) can1 0CF00300#D1000000FFFF00FF
(1779067271.044351) can1 18FF0800#004030010000000F
(1779067271.053172) can1 0CF00400#007D7D000000F07D
(1779067271.053764) can1 18FF0000#8A17FFFFFFFFFFFF
(1779067271.057303) can1 0CFE6CEE#0000000000000000
(1779067271.063222) can1 0CF00400#007D7D000000F07D
(1779067271.073152) can1 0CF00400#007D7D000000F07D
(1779067271.073743) can1 18FF0000#8A17FFFFFFFFFFFF
(1779067271.077323) can1 18FEE017#00000000508C0600
(1779067271.083167) can1 0CF00400#007D7D000000F07D
(1779067271.093173) can1 0CF00400#007D7D000000F07D
(1779067271.093759) can1 0CF00300#D1000000FFFF00FF
(1779067271.094355) can1 18FF0000#8A17FFFFFFFFFFFF
(1779067271.103210) can1 0CF00400#007D7D000000F07D
(1779067271.105381) can1 0CFE6CEE#0000000000000000
(1779067271.113154) can1 0CF00400#007D7D000000F07D
(1779067271.113751) can1 18FF0000#8A17FFFFFFFFFFFF
(1779067271.123183) can1 0CF00400#007D7D000000F07D
(1779067271.133151) can1 0CF00400#007D7D000000F07D
(1779067271.133732) can1 18F0000F#C07D7DF3007DFF7D
(1779067271.134324) can1 18FEE000#0000000011860600
(1779067271.134920) can1 18FEF200#000000000000FFFF
(1779067271.135507) can1 18FEF100#F3000004000000FF
(1779067271.136100) can1 18FF0000#8A17FFFFFFFFFFFF
(1779067271.143173) can1 0CF00400#007D7D000000F07D
(1779067271.143756) can1 0CF00300#D1000000FFFF00FF
(1779067271.144356) can1 18FF0800#004030010000000F
(1779067271.153180) can1 0CF00400#007D7D000000F07D
(1779067271.153760) can1 0CFE6CEE#0000000000000000
(1779067271.154348) can1 18FF0000#8A17FFFFFFFFFFFF
(1779067271.163168) can1 0CF00400#007D7D000000F07D
(1779067271.173172) can1 0CF00400#007D7D000000F07D
(1779067271.173753) can1 18FF0000#8A17FFFFFFFFFFFF
(1779067271.177578) can1 18FEE017#00000000508C0600
(1779067271.183191) can1 0CF00400#007D7D000000F07D
(1779067271.183771) can1 18FEDF00#855000007DFFFFF3
(1779067271.193196) can1 0CF00400#007D7D000000F07D
(1779067271.193769) can1 0CF00300#D1000000FFFF00FF
(1779067271.194379) can1 18FF0000#8A17FFFFFFFFFFFF
(1779067271.201624) can1 0CFE6CEE#0000000000000000
(1779067271.203218) can1 0CF00400#007D7D000000F07D
(1779067271.213158) can1 0CF00400#007D7D000000F07D
(1779067271.213754) can1 18FF0000#8A17FFFFFFFFFFFF
(1779067271.217671) can1 18FFE117#00005456EE000000
(1779067271.223178) can1 0CF00400#007D7D000000F07D
(1779067271.233168) can1 0CF00400#007D7D000000F07D
(1779067271.233743) can1 18F0000F#C07D7DF3007DFF7D
(1779067271.234331) can1 18FEE000#0000000011860600
(1779067271.234927) can1 18FEF200#000000000000FFFF
(1779067271.235511) can1 18FEF100#F3000004000000FF
(1779067271.236107) can1 18FF0000#8A17FFFFFFFFFFFF
(1779067271.237743) can1 18FEE517#9494010000000000
(1779067271.243175) can1 0CF00400#007D7D000000F07D
(1779067271.243771) can1 0CF00300#D1000000FFFF00FF
(1779067271.244363) can1 18FF0800#004030010000000F
(1779067271.249796) can1 0CFE6CEE#0000000000000000
(1779067271.253181) can1 0CF00400#007D7D000000F07D
(1779067271.253769) can1 18FF0000#8A17FFFFFFFFFFFF
(1779067271.263173) can1 0CF00400#007D7D000000F07D
(1779067271.273171) can1 0CF00400#007D7D000000F07D
(1779067271.273766) can1 18FF0000#8A17FFFFFFFFFFFF
(1779067271.277846) can1 18FEE017#00000000508C0600
(1779067271.283165) can1 0CF00400#007D7D000000F07D
(1779067271.293156) can1 0CF00400#007D7D000000F07D
(1779067271.293738) can1 0CF00300#D1000000FFFF00FF
(1779067271.294334) can1 18FF0000#8A17FFFFFFFFFFFF
(1779067271.297894) can1 0CFE6CEE#0000000000000000
(1779067271.303235) can1 0CF00400#007D7D000000F07D
(1779067271.313171) can1 0CF00400#007D7D000000F07D
(1779067271.313760) can1 18FF0000#8A17FFFFFFFFFFFF
(1779067271.323190) can1 0CF00400#007D7D000000F07D
(1779067271.333200) can1 0CF00400#007D7D000000F07D
(1779067271.333754) can1 18F0000F#C07D7DF3007DFF7D
(1779067271.334342) can1 18FEE000#0000000011860600
(1779067271.334936) can1 18FEF200#000000000000FFFF
(1779067271.335520) can1 18FEF100#F3000004000000FF
(1779067271.336117) can1 18FF0000#8A17FFFFFFFFFFFF
(1779067271.343165) can1 0CF00400#007D7D000000F07D
(1779067271.343753) can1 0CF00300#D1000000FFFF00FF
(1779067271.344340) can1 18FEF600#FF00352BFFFFFFFF
(1779067271.344932) can1 18FEEF00#FFFFE100FFFFFFFF
(1779067271.345559) can1 18FEE400#FFFFFFFCFCFFFFFF
(1779067271.346099) can1 0CFE6CEE#0000000000000000
(1779067271.346667) can1 18FEEE00#32327623FFFFFFFF
(1779067271.347239) can1 18FEF500#AEFFFF202235FFFF
(1779067271.347829) can1 18FEF700#FFFFFFFFF701F701
(1779067271.348424) can1 18FF0800#004030010000000F
(1779067271.353165) can1 0CF00400#007D7D000000F07D
(1779067271.353760) can1 18FF0000#8A17FFFFFFFFFFFF
(1779067271.363177) can1 0CF00400#007D7D000000F07D
(1779067271.373187) can1 0CF00400#007D7D000000F07D
(1779067271.373781) can1 18FF0000#8A17FFFFFFFFFFFF
(1779067271.378162) can1 18FEE017#00000000508C0600
(1779067271.383183) can1 0CF00400#007D7D000000F07D
(1779067271.393166) can1 0CF00400#007D7D000000F07D
(1779067271.393753) can1 0CF00300#D1000000FFFF00FF
(1779067271.394330) can1 0CFE6CEE#0000000000000000
(1779067271.394918) can1 18FF0000#8A17FFFFFFFFFFFF
(1779067271.403223) can1 0CF00400#007D7D000000F07D
(1779067271.413178) can1 0CF00400#007D7D000000F07D
(1779067271.413775) can1 18FF0000#8A17FFFFFFFFFFFF
(1779067271.418330) can1 18FFE117#00005456EE000000
(1779067271.423164) can1 0CF00400#007D7D000000F07D
(1779067271.433171) can1 0CF00400#007D7D000000F07D
(1779067271.433743) can1 18F0000F#C07D7DF3007DFF7D
(1779067271.434335) can1 18FEE000#0000000011860600
(1779067271.434931) can1 18FEF200#000000000000FFFF
(1779067271.435516) can1 18FEF100#F3000004000000FF
(1779067271.436111) can1 18FF0000#8A17FFFFFFFFFFFF
(1779067271.436695) can1 18FEDF00#855000007DFFFFF3
(1779067271.442387) can1 0CFE6CEE#0000000000000000
(1779067271.443207) can1 0CF00400#007D7D000000F07D
(1779067271.443796) can1 0CF00300#D1000000FFFF00FF
(1779067271.444391) can1 18FD0700#700CFFFFFFFFFF3F
(1779067271.444983) can1 18FECA00#00FF00000000FFFF
(1779067271.445582) can1 18FF0800#004030010000000F
(1779067271.453191) can1 0CF00400#007D7D000000F07D
(1779067271.453783) can1 18FF0000#8A17FFFFFFFFFFFF
(1779067271.463171) can1 0CF00400#007D7D000000F07D
(1779067271.473212) can1 0CF00400#007D7D000000F07D
(1779067271.473778) can1 18FF0000#8A17FFFFFFFFFFFF
(1779067271.478476) can1 18FEE017#00000000508C0600
(1779067271.483193) can1 0CF00400#007D7D000000F07D
(1779067271.490505) can1 0CFE6CEE#0000000000000000
(1779067271.493178) can1 0CF00400#007D7D000000F07D
(1779067271.493765) can1 0CF00300#D1000000FFFF00FF
(1779067271.494361) can1 18FF0000#8A17FFFFFFFFFFFF
(1779067271.503225) can1 0CF00400#007D7D000000F07D
(1779067271.513194) can1 0CF00400#007D7D000000F07D
(1779067271.513791) can1 18FF0000#8A17FFFFFFFFFFFF
(1779067271.523160) can1 0CF00400#007D7D000000F07D
(1779067271.533168) can1 0CF00400#007D7D000000F07D
(1779067271.533743) can1 18F0000F#C07D7DF3007DFF7D
(1779067271.534331) can1 18FEE000#0000000011860600
(1779067271.534927) can1 18FEF200#000000000000FFFF
(1779067271.535511) can1 18FEF100#F3000004000000FF
(1779067271.536107) can1 18FF0000#8A17FFFFFFFFFFFF
(1779067271.538639) can1 0CFE6CEE#0000000000000000
(1779067271.543179) can1 0CF00400#007D7D000000F07D
(1779067271.543764) can1 0CF00300#D1000000FFFF00FF
(1779067271.544363) can1 18FF0800#004030010000000F
(1779067271.553165) can1 0CF00400#007D7D000000F07D
(1779067271.553767) can1 18FF0000#8A17FFFFFFFFFFFF
(1779067271.563179) can1 0CF00400#007D7D000000F07D
(1779067271.573185) can1 0CF00400#007D7D000000F07D
(1779067271.573780) can1 18FF0000#8A17FFFFFFFFFFFF
(1779067271.578696) can1 18FEE017#00000000508C0600
(1779067271.583164) can1 0CF00400#007D7D000000F07D
(1779067271.586736) can1 0CFE6CEE#0000000000000000
(1779067271.593166) can1 0CF00400#007D7D000000F07D
(1779067271.593753) can1 0CF00300#D1000000FFFF00FF
(1779067271.594349) can1 18FF0000#8A17FFFFFFFFFFFF
(1779067271.603247) can1 0CF00400#007D7D000000F07D
(1779067271.613407) can1 0CF00400#007D7D000000F07D
(1779067271.613783) can1 18FF0000#8A17FFFFFFFFFFFF
(1779067271.618801) can1 18FFE117#00005456EE000000
(1779067271.623169) can1 0CF00400#007D7D000000F07D
(1779067271.633194) can1 0CF00400#007D7D000000F07D
(1779067271.633755) can1 18F0000F#C07D7DF3007DFF7D
(1779067271.634369) can1 18FEE000#0000000011860600
(1779067271.634924) can1 0CFE6CEE#0000000000000000
(1779067271.635516) can1 18FEF200#000000000000FFFF
(1779067271.636099) can1 18FEF100#F3000004000000FF
(1779067271.636691) can1 18FF0000#8A17FFFFFFFFFFFF
(1779067271.643197) can1 0CF00400#007D7D000000F07D
(1779067271.644015) can1 0CF00300#D1000000FFFF00FF
(1779067271.644383) can1 18FF0800#004030010000000F
(1779067271.653226) can1 0CF00400#007D7D000000F07D
(1779067271.653783) can1 18FF0000#8A17FFFFFFFFFFFF
(1779067271.663207) can1 0CF00400#007D7D000000F07D
(1779067271.673203) can1 0CF00400#007D7D000000F07D
(1779067271.673768) can1 18FF0000#8A17FFFFFFFFFFFF
(1779067271.678966) can1 18FEE017#00000000508C0600
(1779067271.683000) can1 0CFE6CEE#0000000000000000
(1779067271.683610) can1 0CF00400#007D7D000000F07D
(1779067271.684312) can1 18FEDF00#855000007DFFFFF3
(1779067271.693203) can1 0CF00400#007D7D000000F07D
(1779067271.693776) can1 0CF00300#D1000000FFFF00FF
(1779067271.694373) can1 18FF0000#8A17FFFFFFFFFFFF
(1779067271.703230) can1 0CF00400#007D7D000000F07D
(1779067271.713169) can1 0CF00400#007D7D000000F07D
(1779067271.713765) can1 18FF0000#8A17FFFFFFFFFFFF
(1779067271.723188) can1 0CF00400#007D7D000000F07D
(1779067271.731070) can1 0CFE6CEE#0000000000000000
(1779067271.733198) can1 0CF00400#007D7D000000F07D
(1779067271.733774) can1 18F0000F#C07D7DF3007DFF7D
(1779067271.734366) can1 18FEE000#0000000011860600
(1779067271.734962) can1 18FEF200#000000000000FFFF
(1779067271.735546) can1 18FEF100#F3000004000000FF
(1779067271.736142) can1 18FF0000#8A17FFFFFFFFFFFF
(1779067271.739138) can1 18FEE517#9494010000000000
(1779067271.743182) can1 0CF00400#007D7D000000F07D
(1779067271.743767) can1 0CF00300#D1000000FFFF00FF
(1779067271.744369) can1 18FF0800#004030010000000F
(1779067271.753195) can1 0CF00400#007D7D000000F07D
(1779067271.753791) can1 18FF0000#8A17FFFFFFFFFFFF
(1779067271.763183) can1 0CF00400#007D7D000000F07D
(1779067271.773182) can1 0CF00400#007D7D000000F07D
(1779067271.773776) can1 18FF0000#8A17FFFFFFFFFFFF
(1779067271.779235) can1 18FEE017#00000000508C0600
(1779067271.779816) can1 0CFE6CEE#0000000000000000
(1779067271.783208) can1 0CF00400#007D7D000000F07D
(1779067271.793189) can1 0CF00400#007D7D000000F07D
(1779067271.793775) can1 0CF00300#D1000000FFFF00FF
(1779067271.794371) can1 18FF0000#8A17FFFFFFFFFFFF
(1779067271.803245) can1 0CF00400#007D7D000000F07D
(1779067271.813199) can1 0CF00400#007D7D000000F07D
(1779067271.813796) can1 18FF0000#8A17FFFFFFFFFFFF
(1779067271.819357) can1 18FFE117#00005456EE000000
(1779067271.823193) can1 0CF00400#007D7D000000F07D
(1779067271.827385) can1 0CFE6CEE#0000000000000000
(1779067271.833188) can1 0CF00400#007D7D000000F07D
(1779067271.833762) can1 18F0000F#C07D7DF3007DFF7D
(1779067271.834349) can1 18FEE000#0000000011860600
(1779067271.834945) can1 18FEF200#000000000000FFFF
(1779067271.835531) can1 18FEF100#F3000004000000FF
(1779067271.836125) can1 18FF0000#8A17FFFFFFFFFFFF
(1779067271.843198) can1 0CF00400#007D7D000000F07D
(1779067271.843789) can1 0CF00300#D1000000FFFF00FF
(1779067271.844374) can1 18FEF600#FF00352BFFFFFFFF
(1779067271.844963) can1 18FEEF00#FFFFE100FFFFFFFF
(1779067271.845558) can1 18FF0800#004030010000000F
(1779067271.853197) can1 0CF00400#007D7D000000F07D
(1779067271.853794) can1 18FF0000#8A17FFFFFFFFFFFF
(1779067271.863185) can1 0CF00400#007D7D000000F07D
(1779067271.873189) can1 0CF00400#007D7D000000F07D
(1779067271.873787) can1 18FF0000#8A17FFFFFFFFFFFF
(1779067271.875559) can1 0CFE6CEE#0000000000000000
(1779067271.879556) can1 18FEE017#00000000508C0600
(1779067271.883214) can1 0CF00400#007D7D000000F07D
(1779067271.893193) can1 0CF00400#007D7D000000F07D
(1779067271.893780) can1 0CF00300#D1000000FFFF00FF
(1779067271.894370) can1 18FF0000#8A17FFFFFFFFFFFF
(1779067271.903243) can1 0CF00400#007D7D000000F07D
(1779067271.913174) can1 0CF00400#007D7D000000F07D
(1779067271.913771) can1 18FF0000#8A17FFFFFFFFFFFF
(1779067271.923197) can1 0CF00400#007D7D000000F07D
(1779067271.923778) can1 0CFE6CEE#0000000000000000
(1779067271.933295) can1 0CF00400#007D7D000000F07D
(1779067271.933786) can1 18F0000F#C07D7DF3007DFF7D
(1779067271.934372) can1 18FEE000#0000000011860600
(1779067271.934968) can1 18FEF200#000000000000FFFF
(1779067271.935553) can1 18FEF100#F3000004000000FF
(1779067271.936148) can1 18FF0000#8A17FFFFFFFFFFFF
(1779067271.936728) can1 18FEDF00#855000007DFFFFF3
(1779067271.943176) can1 0CF00400#007D7D000000F07D
(1779067271.943760) can1 0CF00300#D1000000FFFF00FF
(1779067271.944360) can1 18FF0800#004030010000000F
(1779067271.953184) can1 0CF00400#007D7D000000F07D
(1779067271.953780) can1 18FF0000#8A17FFFFFFFFFFFF
(1779067271.963199) can1 0CF00400#007D7D000000F07D
(1779067271.971799) can1 0CFE6CEE#0000000000000000
(1779067271.973221) can1 0CF00400#007D7D000000F07D
(1779067271.973795) can1 18FF0000#8A17FFFFFFFFFFFF
(1779067271.979800) can1 18FEE017#00000000508C0600
(1779067271.983228) can1 0CF00400#007D7D000000F07D
(1779067271.993220) can1 0CF00400#007D7D000000F07D
(1779067271.993795) can1 0CF00300#D1000000FFFF00FF
(1779067271.994390) can1 18FF0000#8A17FFFFFFFFFFFF
(1779067272.003231) can1 0CF00400#007D7D000000F07D
(1779067272.013198) can1 0CF00400#007D7D000000F07D
(1779067272.013781) can1 18FF0000#8A17FFFFFFFFFFFF
(1779067272.019881) can1 18FFE117#00005456EE000000
(1779067272.020459) can1 0CFE6CEE#0000000000000000
(1779067272.023226) can1 0CF00400#007D7D000000F07D
(1779067272.033182) can1 0CF00400#007D7D000000F07D
(1779067272.033762) can1 18F0000F#C07D7DF3007DFF7D
(1779067272.034347) can1 18FEE000#0000000011860600
(1779067272.034947) can1 18FEF200#000000000000FFFF
(1779067272.035535) can1 18FEF100#F3000004000000FF
(1779067272.036136) can1 18FF0000#8A17FFFFFFFFFFFF
(1779067272.043199) can1 0CF00400#007D7D000000F07D
(1779067272.043787) can1 0CF00300#D1000000FFFF00FF
(1779067272.044387) can1 18FF0800#004030010000000F
(1779067272.053205) can1 0CF00400#007D7D000000F07D
(1779067272.053786) can1 18FF0000#8A17FFFFFFFFFFFF
(1779067272.063205) can1 0CF00400#007D7D000000F07D
(1779067272.068080) can1 0CFE6CEE#0000000000000000
(1779067272.073200) can1 0CF00400#007D7D000000F07D
(1779067272.073781) can1 18FF0000#8A17FFFFFFFFFFFF
(1779067272.080076) can1 18FEE017#00000000508C0600
(1779067272.083242) can1 0CF00400#007D7D000000F07D
(1779067272.093220) can1 0CF00400#007D7D000000F07D
(1779067272.093786) can1 0CF00300#D1000000FFFF00FF
(1779067272.094769) can1 18FF0000#8A17FFFFFFFFFFFF
(1779067272.103283) can1 0CF00400#007D7D000000F07D
(1779067272.113215) can1 0CF00400#007D7D000000F07D
(1779067272.113804) can1 18FF0000#8A17FFFFFFFFFFFF
(1779067272.116179) can1 0CFE6CEE#0000000000000000
(1779067272.123197) can1 0CF00400#007D7D000000F07D
(1779067272.133192) can1 0CF00400#007D7D000000F07D
(1779067272.133764) can1 18F0000F#C07D7DF3007DFF7D
(1779067272.134351) can1 18FEE000#0000000011860600
(1779067272.134949) can1 18FEF200#000000000000FFFF
(1779067272.135540) can1 18FEF100#F3000004000000FF
(1779067272.136129) can1 18FF0000#8A17FFFFFFFFFFFF
(1779067272.143211) can1 0CF00400#007D7D000000F07D
(1779067272.143804) can1 0CF00300#D1000000FFFF00FF
(1779067272.144396) can1 18FF0800#004030010000000F
(1779067272.153223) can1 0CF00400#007D7D000000F07D
(1779067272.153817) can1 18FF0000#8A17FFFFFFFFFFFF
(1779067272.163186) can1 0CF00400#007D7D000000F07D
(1779067272.164313) can1 0CFE6CEE#0000000000000000
(1779067272.173215) can1 0CF00400#007D7D000000F07D
(1779067272.173789) can1 18FF0000#8A17FFFFFFFFFFFF
(1779067272.180343) can1 18FEE017#00000000508C0600
(1779067272.183238) can1 0CF00400#007D7D000000F07D
(1779067272.183803) can1 18FEDF00#855000007DFFFFF3
(1779067272.193216) can1 0CF00400#007D7D000000F07D
(1779067272.193785) can1 0CF00300#D1000000FFFF00FF
(1779067272.194381) can1 18FF0000#8A17FFFFFFFFFFFF
(1779067272.203248) can1 0CF00400#007D7D000000F07D
(1779067272.212401) can1 0CFE6CEE#0000000000000000
(1779067272.213226) can1 0CF00400#007D7D000000F07D
(1779067272.213822) can1 18FF0000#8A17FFFFFFFFFFFF
(1779067272.220442) can1 18FFE117#00005456EE000000
(1779067272.223211) can1 0CF00400#007D7D000000F07D
(1779067272.233190) can1 0CF00400#007D7D000000F07D
(1779067272.233768) can1 18F0000F#C07D7DF3007DFF7D
(1779067272.234359) can1 18FEE000#0000000011860600
(1779067272.234956) can1 18FEF200#000000000000FFFF
(1779067272.235545) can1 18FEF100#F3000004000000FF
(1779067272.236135) can1 18FF0000#8A17FFFFFFFFFFFF
(1779067272.240510) can1 18FEE517#9494010000000000
(1779067272.243219) can1 0CF00400#007D7D000000F07D
(1779067272.243818) can1 0CF00300#D1000000FFFF00FF
(1779067272.244407) can1 18FF0800#004030010000000F
(1779067272.253211) can1 0CF00400#007D7D000000F07D
(1779067272.253805) can1 18FF0000#8A17FFFFFFFFFFFF
(1779067272.260580) can1 0CFE6CEE#0000000000000000
(1779067272.263216) can1 0CF00400#007D7D000000F07D
(1779067272.273194) can1 0CF00400#007D7D000000F07D
(1779067272.273790) can1 18FF0000#8A17FFFFFFFFFFFF
(1779067272.280606) can1 18FEE017#00000000508C0600
(1779067272.283242) can1 0CF00400#007D7D000000F07D
(1779067272.293226) can1 0CF00400#007D7D000000F07D
(1779067272.293796) can1 0CF00300#D1000000FFFF00FF
(1779067272.294390) can1 18FF0000#8A17FFFFFFFFFFFF
(1779067272.303251) can1 0CF00400#007D7D000000F07D
(1779067272.308694) can1 0CFE6CEE#0000000000000000
(1779067272.313203) can1 0CF00400#007D7D000000F07D
(1779067272.313799) can1 18FF0000#8A17FFFFFFFFFFFF
(1779067272.323219) can1 0CF00400#007D7D000000F07D
(1779067272.333197) can1 0CF00400#007D7D000000F07D
(1779067272.333770) can1 18F0000F#C07D7DF3007DFF7D
(1779067272.334360) can1 18FEE000#0000000011860600
(1779067272.334954) can1 18FEF200#000000000000FFFF
(1779067272.335539) can1 18FEF100#F3000004000000FF
(1779067272.336136) can1 18FF0000#8A17FFFFFFFFFFFF
(1779067272.343224) can1 0CF00400#007D7D000000F07D
(1779067272.343802) can1 0CF00300#D1000000FFFF00FF
(1779067272.344390) can1 18FEF600#FF00352BFFFFFFFF
(1779067272.344978) can1 18FEEF00#FFFFE100FFFFFFFF
(1779067272.345570) can1 18FEE400#FFFFFFFCFCFFFFFF
(1779067272.346147) can1 18FEEE00#32327623FFFFFFFF
(1779067272.346724) can1 18FEF500#AEFFFF202235FFFF
(1779067272.347306) can1 18FEF700#FFFFFFFFF701F701
(1779067272.347903) can1 18FF0800#004030010000000F
(1779067272.353214) can1 0CF00400#007D7D000000F07D
(1779067272.353811) can1 18FF0000#8A17FFFFFFFFFFFF
(1779067272.356888) can1 0CFE6CEE#0000000000000000
(1779067272.363203) can1 0CF00400#007D7D000000F07D
(1779067272.373205) can1 0CF00400#007D7D000000F07D
(1779067272.373801) can1 18FF0000#8A17FFFFFFFFFFFF
(1779067272.380917) can1 18FEE017#00000000508C0600
(1779067272.383233) can1 0CF00400#007D7D000000F07D
(1779067272.393193) can1 0CF00400#007D7D000000F07D
(1779067272.393781) can1 0CF00300#D1000000FFFF00FF
(1779067272.394377) can1 18FF0000#8A17FFFFFFFFFFFF
(1779067272.403257) can1 0CF00400#007D7D000000F07D
(1779067272.404977) can1 0CFE6CEE#0000000000000000
(1779067272.413221) can1 0CF00400#007D7D000000F07D
(1779067272.413818) can1 18FF0000#8A17FFFFFFFFFFFF
(1779067272.421021) can1 18FFE117#00005456EE000000
(1779067272.423214) can1 0CF00400#007D7D000000F07D
(1779067272.433211) can1 0CF00400#007D7D000000F07D
(1779067272.433787) can1 18F0000F#C07D7DF3007DFF7D
(1779067272.434375) can1 18FEE000#0000000011860600
(1779067272.434970) can1 18FEF200#000000000000FFFF
(1779067272.435557) can1 18FEF100#F3000004000000FF
(1779067272.436151) can1 18FF0000#8A17FFFFFFFFFFFF
(1779067272.436731) can1 18FEDF00#855000007DFFFFF3
(1779067272.443311) can1 0CF00400#007D7D000000F07D
(1779067272.443816) can1 0CF00300#D1000000FFFF00FF
(1779067272.444407) can1 18FD0700#700CFFFFFFFFFF3F
(1779067272.444999) can1 18FECA00#00FF00000000FFFF
(1779067272.445599) can1 18FF0800#004030010000000F
(1779067272.453191) can1 0CFE6CEE#0000000000000000
(1779067272.453771) can1 0CF00400#007D7D000000F07D
(1779067272.454367) can1 18FF0000#8A17FFFFFFFFFFFF
(1779067272.463207) can1 0CF00400#007D7D000000F07D
(1779067272.473220) can1 0CF00400#007D7D000000F07D
(1779067272.473808) can1 18FF0000#8A17FFFFFFFFFFFF
(1779067272.481247) can1 18FEE017#00000000508C0600
(1779067272.483225) can1 0CF00400#007D7D000000F07D
(1779067272.493213) can1 0CF00400#007D7D000000F07D
(1779067272.493801) can1 0CF00300#D1000000FFFF00FF
(1779067272.494397) can1 18FF0000#8A17FFFFFFFFFFFF
(1779067272.501293) can1 0CFE6CEE#0000000000000000
(1779067272.503281) can1 0CF00400#007D7D000000F07D
(1779067272.513198) can1 0CF00400#007D7D000000F07D
(1779067272.513794) can1 18FF0000#8A17FFFFFFFFFFFF
(1779067272.523210) can1 0CF00400#007D7D000000F07D
(1779067272.533223) can1 0CF00400#007D7D000000F07D
(1779067272.533798) can1 18F0000F#C07D7DF3007DFF7D
(1779067272.534390) can1 18FEE000#0000000011860600
(1779067272.534986) can1 18FEF200#000000000000FFFF
(1779067272.535571) can1 18FEF100#F3000004000000FF
(1779067272.536167) can1 18FF0000#8A17FFFFFFFFFFFF
(1779067272.543218) can1 0CF00400#007D7D000000F07D
(1779067272.543807) can1 0CF00300#D1000000FFFF00FF
(1779067272.544407) can1 18FF0800#004030010000000F
(1779067272.549459) can1 0CFE6CEE#0000000000000000
(1779067272.553223) can1 0CF00400#007D7D000000F07D
(1779067272.553810) can1 18FF0000#8A17FFFFFFFFFFFF
(1779067272.563209) can1 0CF00400#007D7D000000F07D
(1779067272.573214) can1 0CF00400#007D7D000000F07D
(1779067272.573808) can1 18FF0000#8A17FFFFFFFFFFFF
(1779067272.581524) can1 18FEE017#00000000508C0600
(1779067272.583224) can1 0CF00400#007D7D000000F07D
(1779067272.593226) can1 0CF00400#007D7D000000F07D
(1779067272.593813) can1 0CF00300#D1000000FFFF00FF
(1779067272.594409) can1 18FF0000#8A17FFFFFFFFFFFF
(1779067272.597565) can1 0CFE6CEE#0000000000000000
(1779067272.603275) can1 0CF00400#007D7D000000F07D
(1779067272.613225) can1 0CF00400#007D7D000000F07D
(1779067272.613798) can1 18FF0000#8A17FFFFFFFFFFFF
(1779067272.621618) can1 18FFE117#00005456EE000000
(1779067272.623249) can1 0CF00400#007D7D000000F07D
(1779067272.633231) can1 0CF00400#007D7D000000F07D
(1779067272.633790) can1 18F0000F#C07D7DF3007DFF7D
(1779067272.634419) can1 18FEE000#0000000011860600
(1779067272.634976) can1 18FEF200#000000000000FFFF
(1779067272.635559) can1 18FEF100#F3000004000000FF
(1779067272.636154) can1 18FF0000#8A17FFFFFFFFFFFF
(1779067272.643223) can1 0CF00400#007D7D000000F07D
(1779067272.643804) can1 0CF00300#D1000000FFFF00FF
(1779067272.644402) can1 18FF0800#004030010000000F
(1779067272.645732) can1 0CFE6CEE#0000000000000000
(1779067272.653281) can1 0CF00400#007D7D000000F07D
(1779067272.653817) can1 18FF0000#8A17FFFFFFFFFFFF
(1779067272.663217) can1 0CF00400#007D7D000000F07D
(1779067272.673242) can1 0CF00400#007D7D000000F07D
(1779067272.673815) can1 18FF0000#8A17FFFFFFFFFFFF
(1779067272.681771) can1 18FEE017#00000000508C0600
(1779067272.683250) can1 0CF00400#007D7D000000F07D
(1779067272.684032) can1 18FEDF00#855000007DFFFFF3
(1779067272.693213) can1 0CF00400#007D7D000000F07D
(1779067272.693807) can1 0CF00300#D1000000FFFF00FF
(1779067272.694376) can1 0CFE6CEE#0000000000000000
(1779067272.694963) can1 18FF0000#8A17FFFFFFFFFFFF
(1779067272.703278) can1 0CF00400#007D7D000000F07D
(1779067272.713224) can1 0CF00400#007D7D000000F07D
(1779067272.713821) can1 18FF0000#8A17FFFFFFFFFFFF
(1779067272.723213) can1 0CF00400#007D7D000000F07D
(1779067272.733218) can1 0CF00400#007D7D000000F07D
(1779067272.733793) can1 18F0000F#C07D7DF3007DFF7D
(1779067272.734386) can1 18FEE000#0000000011860600
(1779067272.734981) can1 18FEF200#000000000000FFFF
(1779067272.735568) can1 18FEF100#F3000004000000FF
(1779067272.736162) can1 18FF0000#8A17FFFFFFFFFFFF
(1779067272.741960) can1 0CFE6CEE#0000000000000000
(1779067272.742525) can1 18FEE517#9494010000000000
(1779067272.743253) can1 0CF00400#007D7D000000F07D
(1779067272.743841) can1 0CF00300#D1000000FFFF00FF
(1779067272.744441) can1 18FF0800#004030010000000F
(1779067272.753217) can1 0CF00400#007D7D000000F07D
(1779067272.753814) can1 18FF0000#8A17FFFFFFFFFFFF
(1779067272.763225) can1 0CF00400#007D7D000000F07D
(1779067272.773222) can1 0CF00400#007D7D000000F07D
(1779067272.773823) can1 18FF0000#8A17FFFFFFFFFFFF
(1779067272.782075) can1 18FEE017#00000000508C0600
(1779067272.783242) can1 0CF00400#007D7D000000F07D
(1779067272.790114) can1 0CFE6CEE#0000000000000000
(1779067272.793232) can1 0CF00400#007D7D000000F07D
(1779067272.793819) can1 0CF00300#D1000000FFFF00FF
(1779067272.794414) can1 18FF0000#8A17FFFFFFFFFFFF
(1779067272.803269) can1 0CF00400#007D7D000000F07D
(1779067272.813227) can1 0CF00400#007D7D000000F07D
(1779067272.813824) can1 18FF0000#8A17FFFFFFFFFFFF
(1779067272.822176) can1 18FFE117#00005456EE000000
(1779067272.823235) can1 0CF00400#007D7D000000F07D
(1779067272.833212) can1 0CF00400#007D7D000000F07D
(1779067272.833788) can1 18F0000F#C07D7DF3007DFF7D
(1779067272.834380) can1 18FEE000#0000000011860600
(1779067272.834976) can1 18FEF200#000000000000FFFF
(1779067272.835562) can1 18FEF100#F3000004000000FF
(1779067272.836156) can1 18FF0000#8A17FFFFFFFFFFFF
(1779067272.838288) can1 0CFE6CEE#0000000000000000
(1779067272.843224) can1 0CF00400#007D7D000000F07D
(1779067272.843814) can1 0CF00300#D1000000FFFF00FF
(1779067272.844400) can1 18FEF600#FF00352BFFFFFFFF
(1779067272.844984) can1 18FEEF00#FFFFE100FFFFFFFF
(1779067272.845585) can1 18FF0800#004030010000000F
(1779067272.853241) can1 0CF00400#007D7D000000F07D
(1779067272.853834) can1 18FF0000#8A17FFFFFFFFFFFF
(1779067272.863240) can1 0CF00400#007D7D000000F07D
(1779067272.873215) can1 0CF00400#007D7D000000F07D
(1779067272.873809) can1 18FF0000#8A17FFFFFFFFFFFF
(1779067272.882389) can1 18FEE017#00000000508C0600
(1779067272.883250) can1 0CF00400#007D7D000000F07D
(1779067272.886422) can1 0CFE6CEE#0000000000000000
(1779067272.893225) can1 0CF00400#007D7D000000F07D
(1779067272.893810) can1 0CF00300#D1000000FFFF00FF
(1779067272.894410) can1 18FF0000#8A17FFFFFFFFFFFF
(1779067272.903273) can1 0CF00400#007D7D000000F07D
(1779067272.913238) can1 0CF00400#007D7D000000F07D
(1779067272.913835) can1 18FF0000#8A17FFFFFFFFFFFF
(1779067272.923239) can1 0CF00400#007D7D000000F07D
(1779067272.933225) can1 0CF00400#007D7D000000F07D
(1779067272.933801) can1 18F0000F#C07D7DF3007DFF7D
(1779067272.934388) can1 18FEE000#0000000011860600
(1779067272.934968) can1 0CFE6CEE#0000000000000000
(1779067272.935563) can1 18FEF200#000000000000FFFF
(1779067272.936144) can1 18FEF100#F3000004000000FF
(1779067272.936736) can1 18FF0000#8A17FFFFFFFFFFFF
(1779067272.937321) can1 18FEDF00#855000007DFFFFF3
(1779067272.943262) can1 0CF00400#007D7D000000F07D
(1779067272.943820) can1 0CF00300#D1000000FFFF00FF
(1779067272.944420) can1 18FF0800#004030010000000F
(1779067272.953299) can1 0CF00400#007D7D000000F07D
(1779067272.953837) can1 18FF0000#8A17FFFFFFFFFFFF
(1779067272.963214) can1 0CF00400#007D7D000000F07D
(1779067272.973238) can1 0CF00400#007D7D000000F07D
(1779067272.973815) can1 18FF0000#8A17FFFFFFFFFFFF
(1779067272.982611) can1 18FEE017#00000000508C0600
(1779067272.983174) can1 0CFE6CEE#0000000000000000
(1779067272.983752) can1 0CF00400#007D7D000000F07D
(1779067272.993235) can1 0CF00400#007D7D000000F07D
(1779067272.993806) can1 0CF00300#D1000000FFFF00FF
(1779067272.994404) can1 18FF0000#8A17FFFFFFFFFFFF
(1779067273.003284) can1 0CF00400#007D7D000000F07D
(1779067273.013230) can1 0CF00400#007D7D000000F07D
(1779067273.013826) can1 18FF0000#8A17FFFFFFFFFFFF
(1779067273.022691) can1 18FFE117#00005456EE000000
(1779067273.023266) can1 0CF00400#007D7D000000F07D
(1779067273.030718) can1 0CFE6CEE#0000000000000000
(1779067273.033231) can1 0CF00400#007D7D000000F07D
(1779067273.033805) can1 18F0000F#C07D7DF3007DFF7D
(1779067273.034397) can1 18FEE000#0000000011860600
(1779067273.034994) can1 18FEF200#000000000000FFFF
(1779067273.035578) can1 18FEF100#F3000004000000FF
(1779067273.036175) can1 18FF0000#8A17FFFFFFFFFFFF
(1779067273.043243) can1 0CF00400#007D7D000000F07D
(1779067273.043830) can1 0CF00300#D1000000FFFF00FF
(1779067273.044430) can1 18FF0800#004030010000000F
(1779067273.053221) can1 0CF00400#007D7D000000F07D
(1779067273.053820) can1 18FF0000#8A17FFFFFFFFFFFF
(1779067273.063230) can1 0CF00400#007D7D000000F07D
(1779067273.073243) can1 0CF00400#007D7D000000F07D
(1779067273.073837) can1 18FF0000#8A17FFFFFFFFFFFF
(1779067273.078894) can1 0CFE6CEE#0000000000000000
(1779067273.082890) can1 18FEE017#00000000508C0600
(1779067273.083484) can1 0CF00400#007D7D000000F07D
(1779067273.093227) can1 0CF00400#007D7D000000F07D
(1779067273.093805) can1 0CF00300#D1000000FFFF00FF
(1779067273.094400) can1 18FF0000#8A17FFFFFFFFFFFF
(1779067273.103280) can1 0CF00400#007D7D000000F07D
(1779067273.113246) can1 0CF00400#007D7D000000F07D
(1779067273.113840) can1 18FF0000#8A17FFFFFFFFFFFF
(1779067273.123222) can1 0CF00400#007D7D000000F07D
(1779067273.126999) can1 0CFE6CEE#0000000000000000
(1779067273.133227) can1 0CF00400#007D7D000000F07D
(1779067273.133798) can1 18F0000F#C07D7DF3007DFF7D
(1779067273.134385) can1 18FEE000#0000000011860600
(1779067273.134982) can1 18FEF200#000000000000FFFF
(1779067273.135566) can1 18FEF100#F3000004000000FF
(1779067273.136162) can1 18FF0000#8A17FFFFFFFFFFFF
(1779067273.143241) can1 0CF00400#007D7D000000F07D
(1779067273.143826) can1 0CF00300#D1000000FFFF00FF
(1779067273.144427) can1 18FF0800#004030010000000F
(1779067273.153241) can1 0CF00400#007D7D000000F07D
(1779067273.153835) can1 18FF0000#8A17FFFFFFFFFFFF
(1779067273.163238) can1 0CF00400#007D7D000000F07D
(1779067273.173250) can1 0CF00400#007D7D000000F07D
(1779067273.173823) can1 18FF0000#8A17FFFFFFFFFFFF
(1779067273.175155) can1 0CFE6CEE#0000000000000000
(1779067273.183146) can1 18FEE017#00000000508C0600
(1779067273.183727) can1 0CF00400#007D7D000000F07D
(1779067273.184310) can1 18FEDF00#855000007DFFFFF3
(1779067273.193240) can1 0CF00400#007D7D000000F07D
(1779067273.193826) can1 0CF00300#D1000000FFFF00FF
(1779067273.194428) can1 18FF0000#8A17FFFFFFFFFFFF
(1779067273.203284) can1 0CF00400#007D7D000000F07D
(1779067273.213237) can1 0CF00400#007D7D000000F07D
(1779067273.213834) can1 18FF0000#8A17FFFFFFFFFFFF
(1779067273.223241) can1 0CF00400#007D7D000000F07D
(1779067273.223813) can1 18FFE117#00005456EE000000
(1779067273.224394) can1 0CFE6CEE#0000000000000000
(1779067273.233246) can1 0CF00400#007D7D000000F07D
(1779067273.233824) can1 18F0000F#C07D7DF3007DFF7D
(1779067273.234414) can1 18FEE000#0000000011860600
(1779067273.235010) can1 18FEF200#000000000000FFFF
(1779067273.235594) can1 18FEF100#F3000004000000FF
(1779067273.236196) can1 18FF0000#8A17FFFFFFFFFFFF
(1779067273.243259) can1 0CF00400#007D7D000000F07D
(1779067273.243819) can1 18FEE517#9494010000000000
(1779067273.244398) can1 0CF00300#D1000000FFFF00FF
(1779067273.244998) can1 18FF0800#004030010000000F
(1779067273.253251) can1 0CF00400#007D7D000000F07D
(1779067273.253840) can1 18FF0000#8A17FFFFFFFFFFFF
(1779067273.263228) can1 0CF00400#007D7D000000F07D
(1779067273.271422) can1 0CFE6CEE#0000000000000000
(1779067273.273257) can1 0CF00400#007D7D000000F07D
(1779067273.273853) can1 18FF0000#8A17FFFFFFFFFFFF
(1779067273.283245) can1 0CF00400#007D7D000000F07D
(1779067273.283814) can1 18FEE017#00000000508C0600
(1779067273.293234) can1 0CF00400#007D7D000000F07D
(1779067273.293824) can1 0CF00300#D1000000FFFF00FF
(1779067273.294417) can1 18FF0000#8A17FFFFFFFFFFFF
(1779067273.303304) can1 0CF00400#007D7D000000F07D
(1779067273.313264) can1 0CF00400#007D7D000000F07D
(1779067273.313857) can1 18FF0000#8A17FFFFFFFFFFFF
(1779067273.319515) can1 0CFE6CEE#0000000000000000
(1779067273.323265) can1 0CF00400#007D7D000000F07D
(1779067273.333258) can1 0CF00400#007D7D000000F07D
(1779067273.333821) can1 18F0000F#C07D7DF3007DFF7D
(1779067273.334403) can1 18FEE000#0000000011860600
(1779067273.335000) can1 18FEF200#000000000000FFFF
(1779067273.335585) can1 18FEF100#F3000004000000FF
(1779067273.336179) can1 18FF0000#8A17FFFFFFFFFFFF
(1779067273.343253) can1 0CF00400#007D7D000000F07D
(1779067273.343850) can1 0CF00300#D1000000FFFF00FF
(1779067273.344427) can1 18FEF600#FF00352BFFFFFFFF
(1779067273.345013) can1 18FEEF00#FFFFE100FFFFFFFF
(1779067273.345603) can1 18FEE400#FFFFFFFCFCFFFFFF
(1779067273.346179) can1 18FEEE00#32327623FFFFFFFF
(1779067273.346751) can1 18FEF500#AEFFFF202235FFFF
(1779067273.347335) can1 18FEF700#FFFFFFFFF701F701
(1779067273.347932) can1 18FF0800#004030010000000F
(1779067273.353248) can1 0CF00400#007D7D000000F07D
(1779067273.353844) can1 18FF0000#8A17FFFFFFFFFFFF
(1779067273.363232) can1 0CF00400#007D7D000000F07D
(1779067273.367748) can1 0CFE6CEE#0000000000000000
(1779067273.373252) can1 0CF00400#007D7D000000F07D
(1779067273.373848) can1 18FF0000#8A17FFFFFFFFFFFF
(1779067273.383240) can1 0CF00400#007D7D000000F07D
(1779067273.383804) can1 18FEE017#00000000508C0600
(1779067273.393257) can1 0CF00400#007D7D000000F07D
(1779067273.393844) can1 0CF00300#D1000000FFFF00FF
(1779067273.394437) can1 18FF0000#8A17FFFFFFFFFFFF
(1779067273.403285) can1 0CF00400#007D7D000000F07D
(1779067273.413229) can1 0CF00400#007D7D000000F07D
(1779067273.413826) can1 18FF0000#8A17FFFFFFFFFFFF
(1779067273.415802) can1 0CFE6CEE#0000000000000000
(1779067273.423238) can1 0CF00400#007D7D000000F07D
(1779067273.423818) can1 18FFE117#00005456EE000000
(1779067273.433262) can1 0CF00400#007D7D000000F07D
(1779067273.433838) can1 18F0000F#C07D7DF3007DFF7D
(1779067273.434430) can1 18FEE000#0000000011860600
(1779067273.435025) can1 18FEF200#000000000000FFFF
(1779067273.435615) can1 18FEF100#F3000004000000FF
(1779067273.436206) can1 18FF0000#8A17FFFFFFFFFFFF
(1779067273.436786) can1 18FEDF00#855000007DFFFFF3
(1779067273.443235) can1 0CF00400#007D7D000000F07D
(1779067273.443819) can1 0CF00300#D1000000FFFF00FF
(1779067273.444415) can1 18FD0700#700CFFFFFFFFFF3F
(1779067273.445009) can1 18FECA00#00FF00000000FFFF
(1779067273.445606) can1 18FF0800#004030010000000F
(1779067273.453246) can1 0CF00400#007D7D000000F07D
(1779067273.453839) can1 18FF0000#8A17FFFFFFFFFFFF
(1779067273.463262) can1 0CF00400#007D7D000000F07D
(1779067273.464073) can1 0CFE6CEE#0000000000000000
(1779067273.473248) can1 0CF00400#007D7D000000F07D
(1779067273.473843) can1 18FF0000#8A17FFFFFFFFFFFF
(1779067273.483268) can1 0CF00400#007D7D000000F07D
(1779067273.484041) can1 18FEE017#00000000508C0600
(1779067273.493261) can1 0CF00400#007D7D000000F07D
(1779067273.493845) can1 0CF00300#D1000000FFFF00FF
(1779067273.494441) can1 18FF0000#8A17FFFFFFFFFFFF
(1779067273.503282) can1 0CF00400#007D7D000000F07D
(1779067273.512096) can1 0CFE6CEE#0000000000000000
(1779067273.513255) can1 0CF00400#007D7D000000F07D
(1779067273.513852) can1 18FF0000#8A17FFFFFFFFFFFF
(1779067273.523265) can1 0CF00400#007D7D000000F07D
(1779067273.533246) can1 0CF00400#007D7D000000F07D
(1779067273.533822) can1 18F0000F#C07D7DF3007DFF7D
(1779067273.534414) can1 18FEE000#0000000011860600
(1779067273.535010) can1 18FEF200#000000000000FFFF
(1779067273.535611) can1 18FEF100#F3000004000000FF
(1779067273.536190) can1 18FF0000#8A17FFFFFFFFFFFF
(1779067273.543255) can1 0CF00400#007D7D000000F07D
(1779067273.543843) can1 0CF00300#D1000000FFFF00FF
(1779067273.544442) can1 18FF0800#004030010000000F
(1779067273.553262) can1 0CF00400#007D7D000000F07D
(1779067273.553859) can1 18FF0000#8A17FFFFFFFFFFFF
(1779067273.560266) can1 0CFE6CEE#0000000000000000
(1779067273.563270) can1 0CF00400#007D7D000000F07D
(1779067273.573245) can1 0CF00400#007D7D000000F07D
(1779067273.573839) can1 18FF0000#8A17FFFFFFFFFFFF
(1779067273.583256) can1 0CF00400#007D7D000000F07D
(1779067273.584297) can1 18FEE017#00000000508C0600
(1779067273.593245) can1 0CF00400#007D7D000000F07D
(1779067273.593832) can1 0CF00300#D1000000FFFF00FF
(1779067273.594428) can1 18FF0000#8A17FFFFFFFFFFFF
(1779067273.603327) can1 0CF00400#007D7D000000F07D
(1779067273.608358) can1 0CFE6CEE#0000000000000000
(1779067273.613253) can1 0CF00400#007D7D000000F07D
(1779067273.613848) can1 18FF0000#8A17FFFFFFFFFFFF
(1779067273.623242) can1 0CF00400#007D7D000000F07D
(1779067273.624394) can1 18FFE117#00005456EE000000
(1779067273.633265) can1 0CF00400#007D7D000000F07D
(1779067273.633827) can1 18F0000F#C07D7DF3007DFF7D
(1779067273.634417) can1 18FEE000#0000000011860600
(1779067273.635011) can1 18FEF200#000000000000FFFF
(1779067273.635595) can1 18FEF100#F3000004000000FF
(1779067273.636190) can1 18FF0000#8A17FFFFFFFFFFFF
(1779067273.643255) can1 0CF00400#007D7D000000F07D
(1779067273.643844) can1 0CF00300#D1000000FFFF00FF
(1779067273.644442) can1 18FF0800#004030010000000F
(1779067273.653308) can1 0CF00400#007D7D000000F07D
(1779067273.653863) can1 18FF0000#8A17FFFFFFFFFFFF
(1779067273.656523) can1 0CFE6CEE#0000000000000000
(1779067273.663254) can1 0CF00400#007D7D000000F07D
(1779067273.673282) can1 0CF00400#007D7D000000F07D
(1779067273.673857) can1 18FF0000#8A17FFFFFFFFFFFF
(1779067273.683244) can1 0CF00400#007D7D000000F07D
(1779067273.683827) can1 18FEDF00#855000007DFFFFF3
(1779067273.684564) can1 18FEE017#00000000508C0600
(1779067273.693260) can1 0CF00400#007D7D000000F07D
(1779067273.693847) can1 0CF00300#D1000000FFFF00FF
(1779067273.694443) can1 18FF0000#8A17FFFFFFFFFFFF
(1779067273.703309) can1 0CF00400#007D7D000000F07D
(1779067273.704619) can1 0CFE6CEE#0000000000000000
(1779067273.713264) can1 0CF00400#007D7D000000F07D
(1779067273.713862) can1 18FF0000#8A17FFFFFFFFFFFF
(1779067273.723253) can1 0CF00400#007D7D000000F07D
(1779067273.733253) can1 0CF00400#007D7D000000F07D
(1779067273.733829) can1 18F0000F#C07D7DF3007DFF7D
(1779067273.734421) can1 18FEE000#0000000011860600
(1779067273.735017) can1 18FEF200#000000000000FFFF
(1779067273.735601) can1 18FEF100#F3000004000000FF
(1779067273.736197) can1 18FF0000#8A17FFFFFFFFFFFF
(1779067273.743260) can1 0CF00400#007D7D000000F07D
(1779067273.743850) can1 0CF00300#D1000000FFFF00FF
(1779067273.744448) can1 18FF0800#004030010000000F
(1779067273.745012) can1 18FEE517#9494010000000000
(1779067273.752765) can1 0CFE6CEE#0000000000000000
(1779067273.753345) can1 0CF00400#007D7D000000F07D
(1779067273.753940) can1 18FF0000#8A17FFFFFFFFFFFF
(1779067273.763260) can1 0CF00400#007D7D000000F07D
(1779067273.773254) can1 0CF00400#007D7D000000F07D
(1779067273.773850) can1 18FF0000#8A17FFFFFFFFFFFF
(1779067273.783271) can1 0CF00400#007D7D000000F07D
(1779067273.784806) can1 18FEE017#00000000508C0600
(1779067273.793274) can1 0CF00400#007D7D000000F07D
(1779067273.793862) can1 0CF00300#D1000000FFFF00FF
(1779067273.794458) can1 18FF0000#8A17FFFFFFFFFFFF
(1779067273.800832) can1 0CFE6CEE#0000000000000000
(1779067273.803307) can1 0CF00400#007D7D000000F07D
(1779067273.813258) can1 0CF00400#007D7D000000F07D
(1779067273.813855) can1 18FF0000#8A17FFFFFFFFFFFF
(1779067273.823268) can1 0CF00400#007D7D000000F07D
(1779067273.824899) can1 18FFE117#00005456EE000000
(1779067273.833267) can1 0CF00400#007D7D000000F07D
(1779067273.833843) can1 18F0000F#C07D7DF3007DFF7D
(1779067273.834435) can1 18FEE000#0000000011860600
(1779067273.835031) can1 18FEF200#000000000000FFFF
(1779067273.835616) can1 18FEF100#F3000004000000FF
(1779067273.836211) can1 18FF0000#8A17FFFFFFFFFFFF
(1779067273.843259) can1 0CF00400#007D7D000000F07D
(1779067273.843848) can1 0CF00300#D1000000FFFF00FF
(1779067273.844436) can1 18FEF600#FF00352BFFFFFFFF
(1779067273.845024) can1 18FEEF00#FFFFE100FFFFFFFF
(1779067273.845624) can1 18FF0800#004030010000000F
(1779067273.849020) can1 0CFE6CEE#0000000000000000
(1779067273.853264) can1 0CF00400#007D7D000000F07D
(1779067273.853865) can1 18FF0000#8A17FFFFFFFFFFFF
(1779067273.863270) can1 0CF00400#007D7D000000F07D
(1779067273.873257) can1 0CF00400#007D7D000000F07D
(1779067273.873859) can1 18FF0000#8A17FFFFFFFFFFFF
(1779067273.883274) can1 0CF00400#007D7D000000F07D
(1779067273.885069) can1 18FEE017#00000000508C0600
(1779067273.893276) can1 0CF00400#007D7D000000F07D
(1779067273.893858) can1 0CF00300#D1000000FFFF00FF
(1779067273.894454) can1 18FF0000#8A17FFFFFFFFFFFF
(1779067273.897109) can1 0CFE6CEE#0000000000000000
(1779067273.903297) can1 0CF00400#007D7D000000F07D
(1779067273.913286) can1 0CF00400#007D7D000000F07D
(1779067273.913880) can1 18FF0000#8A17FFFFFFFFFFFF
(1779067273.923263) can1 0CF00400#007D7D000000F07D
(1779067273.933272) can1 0CF00400#007D7D000000F07D
(1779067273.933848) can1 18F0000F#C07D7DF3007DFF7D
(1779067273.934439) can1 18FEE000#0000000011860600
(1779067273.935035) can1 18FEF200#000000000000FFFF
(1779067273.935621) can1 18FEF100#F3000004000000FF
(1779067273.936215) can1 18FF0000#8A17FFFFFFFFFFFF
(1779067273.936795) can1 18FEDF00#855000007DFFFFF3
(1779067273.943271) can1 0CF00400#007D7D000000F07D
(1779067273.943859) can1 0CF00300#D1000000FFFF00FF
(1779067273.944459) can1 18FF0800#004030010000000F
(1779067273.945255) can1 0CFE6CEE#0000000000000000
(1779067273.953270) can1 0CF00400#007D7D000000F07D
(1779067273.953868) can1 18FF0000#8A17FFFFFFFFFFFF
(1779067273.963278) can1 0CF00400#007D7D000000F07D
(1779067273.973296) can1 0CF00400#007D7D000000F07D
(1779067273.973874) can1 18FF0000#8A17FFFFFFFFFFFF
(1779067273.983282) can1 0CF00400#007D7D000000F07D
(1779067273.985370) can1 18FEE017#00000000508C0600
(1779067273.993270) can1 0CF00400#007D7D000000F07D
(1779067273.993837) can1 0CFE6CEE#0000000000000000
(1779067273.994414) can1 0CF00300#D1000000FFFF00FF
(1779067273.995005) can1 18FF0000#8A17FFFFFFFFFFFF
(1779067274.003332) can1 0CF00400#007D7D000000F07D
(1779067274.013274) can1 0CF00400#007D7D000000F07D
(1779067274.013864) can1 18FF0000#8A17FFFFFFFFFFFF
(1779067274.023270) can1 0CF00400#007D7D000000F07D
(1779067274.025441) can1 18FFE117#00005456EE000000
(1779067274.033301) can1 0CF00400#007D7D000000F07D
(1779067274.033849) can1 18F0000F#C07D7DF3007DFF7D
(1779067274.034434) can1 18FEE000#0000000011860600
(1779067274.035031) can1 18FEF200#000000000000FFFF
(1779067274.035615) can1 18FEF100#F3000004000000FF
(1779067274.036211) can1 18FF0000#8A17FFFFFFFFFFFF
(1779067274.041542) can1 0CFE6CEE#0000000000000000
(1779067274.043277) can1 0CF00400#007D7D000000F07D
(1779067274.043859) can1 0CF00300#D1000000FFFF00FF
(1779067274.044458) can1 18FF0800#004030010000000F
(1779067274.053254) can1 0CF00400#007D7D000000F07D
(1779067274.053850) can1 18FF0000#8A17FFFFFFFFFFFF
(1779067274.063274) can1 0CF00400#007D7D000000F07D
(1779067274.073279) can1 0CF00400#007D7D000000F07D
(1779067274.073860) can1 18FF0000#8A17FFFFFFFFFFFF
(1779067274.083303) can1 0CF00400#007D7D000000F07D
(1779067274.085693) can1 18FEE017#00000000508C0600
(1779067274.089685) can1 0CFE6CEE#0000000000000000
(1779067274.093296) can1 0CF00400#007D7D000000F07D
(1779067274.093867) can1 0CF00300#D1000000FFFF00FF
(1779067274.094475) can1 18FF0000#8A17FFFFFFFFFFFF
(1779067274.103319) can1 0CF00400#007D7D000000F07D
(1779067274.113276) can1 0CF00400#007D7D000000F07D
(1779067274.113859) can1 18FF0000#8A17FFFFFFFFFFFF
(1779067274.123271) can1 0CF00400#007D7D000000F07D
(1779067274.133267) can1 0CF00400#007D7D000000F07D
(1779067274.133838) can1 18F0000F#C07D7DF3007DFF7D
(1779067274.134430) can1 18FEE000#0000000011860600
(1779067274.135026) can1 18FEF200#000000000000FFFF
(1779067274.135611) can1 18FEF100#F3000004000000FF
(1779067274.136206) can1 18FF0000#8A17FFFFFFFFFFFF
(1779067274.137837) can1 0CFE6CEE#0000000000000000
(1779067274.143278) can1 0CF00400#007D7D000000F07D
(1779067274.143867) can1 0CF00300#D1000000FFFF00FF
(1779067274.144466) can1 18FF0800#004030010000000F
(1779067274.153287) can1 0CF00400#007D7D000000F07D
(1779067274.153870) can1 18FF0000#8A17FFFFFFFFFFFF
(1779067274.163264) can1 0CF00400#007D7D000000F07D
(1779067274.173269) can1 0CF00400#007D7D000000F07D
(1779067274.173861) can1 18FF0000#8A17FFFFFFFFFFFF
(1779067274.183298) can1 0CF00400#007D7D000000F07D
(1779067274.183866) can1 18FEDF00#855000007DFFFFF3
(1779067274.185946) can1 18FEE017#00000000508C0600
(1779067274.186501) can1 0CFE6CEE#0000000000000000
(1779067274.193296) can1 0CF00400#007D7D000000F07D
(1779067274.193875) can1 0CF00300#D1000000FFFF00FF
(1779067274.194470) can1 18FF0000#8A17FFFFFFFFFFFF
(1779067274.203325) can1 0CF00400#007D7D000000F07D
(1779067274.213269) can1 0CF00400#007D7D000000F07D
(1779067274.213876) can1 18FF0000#8A17FFFFFFFFFFFF
(1779067274.223271) can1 0CF00400#007D7D000000F07D
(1779067274.226028) can1 18FFE117#00005456EE000000
(1779067274.233284) can1 0CF00400#007D7D000000F07D
(1779067274.233860) can1 18F0000F#C07D7DF3007DFF7D
(1779067274.234440) can1 0CFE6CEE#0000000000000000
(1779067274.235024) can1 18FEE000#0000000011860600
(1779067274.235628) can1 18FEF200#000000000000FFFF
(1779067274.236208) can1 18FEF100#F3000004000000FF
(1779067274.236800) can1 18FF0000#8A17FFFFFFFFFFFF
(1779067274.243279) can1 0CF00400#007D7D000000F07D
(1779067274.243874) can1 0CF00300#D1000000FFFF00FF
(1779067274.244468) can1 18FF0800#004030010000000F
(1779067274.246103) can1 18FEE517#9494010000000000
(1779067274.253266) can1 0CF00400#007D7D000000F07D
(1779067274.253856) can1 18FF0000#8A17FFFFFFFFFFFF
(1779067274.263279) can1 0CF00400#007D7D000000F07D
(1779067274.273285) can1 0CF00400#007D7D000000F07D
(1779067274.273880) can1 18FF0000#8A17FFFFFFFFFFFF
(1779067274.282180) can1 0CFE6CEE#0000000000000000
(1779067274.283282) can1 0CF00400#007D7D000000F07D
(1779067274.286211) can1 18FEE017#00000000508C0600
(1779067274.293277) can1 0CF00400#007D7D000000F07D
(1779067274.293857) can1 0CF00300#D1000000FFFF00FF
(1779067274.294453) can1 18FF0000#8A17FFFFFFFFFFFF
(1779067274.303343) can1 0CF00400#007D7D000000F07D
(1779067274.313308) can1 0CF00400#007D7D000000F07D
(1779067274.313860) can1 18FF0000#8A17FFFFFFFFFFFF
(1779067274.323292) can1 0CF00400#007D7D000000F07D
(1779067274.330256) can1 0CFE6CEE#0000000000000000
(1779067274.333313) can1 0CF00400#007D7D000000F07D
(1779067274.333879) can1 18F0000F#C07D7DF3007DFF7D
(1779067274.334464) can1 18FEE000#0000000011860600
(1779067274.335061) can1 18FEF200#000000000000FFFF
(1779067274.335643) can1 18FEF100#F3000004000000FF
(1779067274.336239) can1 18FF0000#8A17FFFFFFFFFFFF
(1779067274.343264) can1 0CF00400#007D7D000000F07D
(1779067274.343839) can1 18ECFF00#20220005FFE3FE00
(1779067274.344419) can1 0CF00300#D1000000FFFF00FF
(1779067274.345010) can1 18FEF600#FF00352BFFFFFFFF
(1779067274.345595) can1 18FEEF00#FFFFE100FFFFFFFF
(1779067274.346186) can1 18FEE400#FFFFFFFCFCFFFFFF
(1779067274.346759) can1 18FEEE00#32327623FFFFFFFF
(1779067274.347331) can1 18FEF500#AEFFFF202235FFFF
(1779067274.347915) can1 18FEF700#FFFFFFFFF701F701
(1779067274.348511) can1 18FF0800#004030010000000F
(1779067274.353269) can1 0CF00400#007D7D000000F07D
(1779067274.353863) can1 18FF0000#8A17FFFFFFFFFFFF
(1779067274.363279) can1 0CF00400#007D7D000000F07D
(1779067274.373272) can1 0CF00400#007D7D000000F07D
(1779067274.373868) can1 18FF0000#8A17FFFFFFFFFFFF
(1779067274.378502) can1 0CFE6CEE#0000000000000000
(1779067274.383260) can1 0CF00400#007D7D000000F07D
(1779067274.386504) can1 18FEE017#00000000508C0600
(1779067274.393277) can1 0CF00400#007D7D000000F07D
(1779067274.393865) can1 0CF00300#D1000000FFFF00FF
(1779067274.394461) can1 18FF0000#8A17FFFFFFFFFFFF
(1779067274.403336) can1 0CF00400#007D7D000000F07D
(1779067274.403908) can1 18EBFF00#014C14B8A041CE80
(1779067274.413279) can1 0CF00400#007D7D000000F07D
(1779067274.413876) can1 18FF0000#8A17FFFFFFFFFFFF
(1779067274.423301) can1 0CF00400#007D7D000000F07D
(1779067274.426600) can1 18FFE117#00005456EE000000
(1779067274.427180) can1 0CFE6CEE#0000000000000000
(1779067274.433282) can1 0CF00400#007D7D000000F07D
(1779067274.433857) can1 18F0000F#C07D7DF3007DFF7D
(1779067274.434594) can1 18FEE000#0000000011860600
(1779067274.435054) can1 18FEF200#000000000000FFFF
(1779067274.435629) can1 18FEF100#F3000004000000FF
(1779067274.436225) can1 18FF0000#8A17FFFFFFFFFFFF
(1779067274.436809) can1 18FEDF00#855000007DFFFFF3
(1779067274.443281) can1 0CF00400#007D7D000000F07D
(1779067274.443865) can1 0CF00300#D1000000FFFF00FF
(1779067274.444461) can1 18FD0700#700CFFFFFFFFFF3F
(1779067274.445053) can1 18FECA00#00FF00000000FFFF
(1779067274.445653) can1 18FF0800#004030010000000F
(1779067274.453295) can1 0CF00400#007D7D000000F07D
(1779067274.453889) can1 18FF0000#8A17FFFFFFFFFFFF
(1779067274.463285) can1 0CF00400#007D7D000000F07D
(1779067274.463849) can1 18EBFF00#0225DE0032E1603B
(1779067274.473266) can1 0CF00400#007D7D000000F07D
(1779067274.473867) can1 18FF0000#8A17FFFFFFFFFFFF
(1779067274.474857) can1 0CFE6CEE#0000000000000000
(1779067274.483335) can1 0CF00400#007D7D000000F07D
(1779067274.486867) can1 18FEE017#00000000508C0600
(1779067274.493299) can1 0CF00400#007D7D000000F07D
(1779067274.493884) can1 0CF00300#D1000000FFFF00FF
(1779067274.494480) can1 18FF0000#8A17FFFFFFFFFFFF
(1779067274.503320) can1 0CF00400#007D7D000000F07D
(1779067274.513280) can1 0CF00400#007D7D000000F07D
(1779067274.513877) can1 18FF0000#8A17FFFFFFFFFFFF
(1779067274.522930) can1 0CFE6CEE#0000000000000000
(1779067274.523510) can1 0CF00400#007D7D000000F07D
(1779067274.524078) can1 18EBFF00#03D4304834020E08
(1779067274.533269) can1 0CF00400#007D7D000000F07D
(1779067274.533842) can1 18F0000F#C07D7DF3007DFF7D
(1779067274.534430) can1 18FEE000#0000000011860600
(1779067274.535026) can1 18FEF200#000000000000FFFF
(1779067274.535626) can1 18FEF100#F3000004000000FF
(1779067274.536206) can1 18FF0000#8A17FFFFFFFFFFFF
(1779067274.543277) can1 0CF00400#007D7D000000F07D
(1779067274.543866) can1 0CF00300#D1000000FFFF00FF
(1779067274.544466) can1 18FF0800#004030010000000F
(1779067274.553290) can1 0CF00400#007D7D000000F07D
(1779067274.553886) can1 18FF0000#8A17FFFFFFFFFFFF
(1779067274.563279) can1 0CF00400#007D7D000000F07D
(1779067274.571072) can1 0CFE6CEE#0000000000000000
(1779067274.573288) can1 0CF00400#007D7D000000F07D
(1779067274.573883) can1 18FF0000#8A17FFFFFFFFFFFF
(1779067274.583287) can1 0CF00400#007D7D000000F07D
(1779067274.583855) can1 18EBFF00#04004B0040E7008C
(1779067274.587112) can1 18FEE017#00000000508C0600
(1779067274.593289) can1 0CF00400#007D7D000000F07D
(1779067274.593876) can1 0CF00300#D1000000FFFF00FF
(1779067274.594472) can1 18FF0000#8A17FFFFFFFFFFFF
(1779067274.603358) can1 0CF00400#007D7D000000F07D
(1779067274.613291) can1 0CF00400#007D7D000000F07D
(1779067274.613877) can1 18FF0000#8A17FFFFFFFFFFFF
(1779067274.619178) can1 0CFE6CEE#0000000000000000
(1779067274.623296) can1 0CF00400#007D7D000000F07D
(1779067274.627189) can1 18FFE117#00005456EE000000
(1779067274.633312) can1 0CF00400#007D7D000000F07D
(1779067274.633895) can1 18F0000F#C07D7DF3007DFF7D
(1779067274.634461) can1 18FEE000#0000000011860600
(1779067274.635054) can1 18FEF200#000000000000FFFF
(1779067274.635638) can1 18FEF100#F3000004000000FF
(1779067274.636234) can1 18FF0000#8A17FFFFFFFFFFFF
(1779067274.643294) can1 0CF00400#007D7D000000F07D
(1779067274.643881) can1 18EBFF00#05304800000000FF
(1779067274.644464) can1 0CF00300#D1000000FFFF00FF
(1779067274.645059) can1 18FF0800#004030010000000F
(1779067274.653339) can1 0CF00400#007D7D000000F07D
(1779067274.653915) can1 18FF0000#8A17FFFFFFFFFFFF
(1779067274.663310) can1 0CF00400#007D7D000000F07D
(1779067274.667371) can1 0CFE6CEE#0000000000000000
(1779067274.673276) can1 0CF00400#007D7D000000F07D
(1779067274.673873) can1 18FF0000#8A17FFFFFFFFFFFF
(1779067274.683308) can1 0CF00400#007D7D000000F07D
(1779067274.683881) can1 18FEDF00#855000007DFFFFF3
(1779067274.687368) can1 18FEE017#00000000508C0600
(1779067274.693292) can1 0CF00400#007D7D000000F07D
(1779067274.693876) can1 0CF00300#D1000000FFFF00FF
(1779067274.694471) can1 18FF0000#8A17FFFFFFFFFFFF
(1779067274.703325) can1 0CF00400#007D7D000000F07D
(1779067274.713284) can1 0CF00400#007D7D000000F07D
(1779067274.713880) can1 18FF0000#8A17FFFFFFFFFFFF
(1779067274.715412) can1 0CFE6CEE#0000000000000000
(1779067274.723301) can1 0CF00400#007D7D000000F07D
(1779067274.733279) can1 0CF00400#007D7D000000F07D
(1779067274.733855) can1 18F0000F#C07D7DF3007DFF7D
(1779067274.734447) can1 18FEE000#0000000011860600
(1779067274.735043) can1 18FEF200#000000000000FFFF
(1779067274.735630) can1 18FEF100#F3000004000000FF
(1779067274.736223) can1 18FF0000#8A17FFFFFFFFFFFF
(1779067274.743304) can1 0CF00400#007D7D000000F07D
(1779067274.743892) can1 0CF00300#D1000000FFFF00FF
(1779067274.744492) can1 18FF0800#004030010000000F
(1779067274.747526) can1 18FEE517#9494010000000000
(1779067274.753306) can1 0CF00400#007D7D000000F07D
(1779067274.753902) can1 18FF0000#8A17FFFFFFFFFFFF
(1779067274.763273) can1 0CF00400#007D7D000000F07D
(1779067274.763856) can1 0CFE6CEE#0000000000000000
(1779067274.773286) can1 0CF00400#007D7D000000F07D
(1779067274.773882) can1 18FF0000#8A17FFFFFFFFFFFF
(1779067274.783310) can1 0CF00400#007D7D000000F07D
(1779067274.787626) can1 18FEE017#00000000508C0600
(1779067274.793287) can1 0CF00400#007D7D000000F07D
(1779067274.793874) can1 0CF00300#D1000000FFFF00FF
(1779067274.794469) can1 18FF0000#8A17FFFFFFFFFFFF
(1779067274.803342) can1 0CF00400#007D7D000000F07D
(1779067274.811675) can1 0CFE6CEE#0000000000000000
(1779067274.813321) can1 0CF00400#007D7D000000F07D
(1779067274.813918) can1 18FF0000#8A17FFFFFFFFFFFF
(1779067274.823277) can1 0CF00400#007D7D000000F07D
(1779067274.827739) can1 18FFE117#00005456EE000000
(1779067274.833284) can1 0CF00400#007D7D000000F07D
(1779067274.833859) can1 18F0000F#C07D7DF3007DFF7D
(1779067274.834452) can1 18FEE000#0000000011860600
(1779067274.835043) can1 18FEF200#000000000000FFFF
(1779067274.835632) can1 18FEF100#F3000004000000FF
(1779067274.836227) can1 18FF0000#8A17FFFFFFFFFFFF
(1779067274.843310) can1 0CF00400#007D7D000000F07D
(1779067274.843895) can1 0CF00300#D1000000FFFF00FF
(1779067274.844483) can1 18FEF600#FF00352BFFFFFFFF
(1779067274.845067) can1 18FEEF00#FFFFE100FFFFFFFF
(1779067274.845667) can1 18FF0800#004030010000000F
(1779067274.853281) can1 0CF00400#007D7D000000F07D
(1779067274.853876) can1 18FF0000#8A17FFFFFFFFFFFF
(1779067274.859869) can1 0CFE6CEE#0000000000000000
(1779067274.863307) can1 0CF00400#007D7D000000F07D
(1779067274.873376) can1 0CF00400#007D7D000000F07D
